
**** 10/27/21 21:06:53 ******* PSpice 17.4.0 (Nov 2018) ******* ID# 0 ********

 ** Profile: "SCHEMATIC1-Solenoid_Driver"  [ c:\users\markl\documents\sem7\smartsystems\pintowin\schematics\main_control\main_control


 ****     CIRCUIT DESCRIPTION


******************************************************************************




** Creating circuit file "Solenoid_Driver.cir" 
** WARNING: THIS AUTOMATICALLY GENERATED FILE MAY BE OVERWRITTEN BY SUBSEQUENT SIMULATIONS

*Libraries: 
* Profile Libraries :
* Local Libraries :
* From [PSPICE NETLIST] section of C:\Users\markl\Documents\SPB_Data\cdssetup\OrCAD_PSpice\17.4.0\PSpice.ini file:
.lib "nom.lib" 

*Analysis directives: 
.TRAN  0 3m 0 
.OPTIONS ADVCONV
.PROBE64 V(alias(*)) I(alias(*)) W(alias(*)) D(alias(*)) NOISE(alias(*)) 
.INC "..\SCHEMATIC1.net" 



**** INCLUDING SCHEMATIC1.net ****
* source MAIN_CONTROL_BOARD
Q_P1_Q3         0 P1_N00192 P1_N00204 Q2N3906
Q_P1_Q2         12V P1_N00192 P1_N00204 Q2N3904
Q_P1_Q1         P1_N00228 P1_N00243 0 Q2N3904
R_P1_R12         P1_N00228 12V  4.7k TC=0,0 
R_P1_R11         P1_N00243 12V  10k TC=0,0 
R_P1_R10         P1_N00243 PWM_SOLENOID1  330 TC=0,0 
R_P1_R13         P1_N00192 P1_N00228  1k TC=0,0 
R_P1_R14         P1_N00409 P1_N00204  33 TC=0,0 
R_P1_R15         SHUNT_SIG1 0  0.1 TC=0,0 
R_P1_R16         P1_N00739 30V  12 TC=0,0 
L_P1_L1         P1_N00739 P1_N00612  33u  
V_P1_V5         PWM_SOLENOID1 0  
+PULSE 0 3 10u 1u 1u 50u 100u
X_P1_M1         P1_N00612 P1_N00409 SHUNT_SIG1 IRF520
D_P1_D1         P1_N00612 30V D1N5819 
R_P2_R20         P2_N00192 P2_N00228  1k TC=0,0 
R_P2_R17         P2_N00243 PWM_SOLENOID2  330 TC=0,0 
R_P2_R18         P2_N00243 12V  10k TC=0,0 
R_P2_R19         P2_N00228 12V  4.7k TC=0,0 
R_P2_R23         P2_N00739 30V  12 TC=0,0 
D_P2_D2         P2_N00612 30V D1N5819 
Q_P2_Q5         12V P2_N00192 P2_N00204 Q2N3904
R_P2_R22         SHUNT_SIG2 0  0.1 TC=0,0 
Q_P2_Q4         P2_N00228 P2_N00243 0 Q2N3904
V_P2_V6         PWM_SOLENOID2 0  
+PULSE 0 3 10u 1u 1u 50u 100u
X_P2_M2         P2_N00612 P2_N00409 SHUNT_SIG2 IRF520
R_P2_R21         P2_N00409 P2_N00204  33 TC=0,0 
Q_P2_Q6         0 P2_N00192 P2_N00204 Q2N3906
L_P2_L2         P2_N00739 P2_N00612  33u  
R_P3_R27         P3_N00192 P3_N00228  1k TC=0,0 
R_P3_R24         P3_N00243 PWM_SOLENOID3  330 TC=0,0 
R_P3_R25         P3_N00243 12V  10k TC=0,0 
R_P3_R26         P3_N00228 12V  4.7k TC=0,0 
R_P3_R30         P3_N00739 30V  12 TC=0,0 
D_P3_D3         P3_N00612 30V D1N5819 
Q_P3_Q8         12V P3_N00192 P3_N00204 Q2N3904
R_P3_R29         SHUNT_SIG3 0  0.1 TC=0,0 
Q_P3_Q7         P3_N00228 P3_N00243 0 Q2N3904
V_P3_V7         PWM_SOLENOID3 0  
+PULSE 0 3 10u 1u 1u 50u 100u
X_P3_M3         P3_N00612 P3_N00409 SHUNT_SIG3 IRF520
R_P3_R28         P3_N00409 P3_N00204  33 TC=0,0 
Q_P3_Q9         0 P3_N00192 P3_N00204 Q2N3906
L_P3_L3         P3_N00739 P3_N00612  33u  
X_P4_U2A         SHUNT_SIG1 P4_N01115 5V 0 CURRENT_SIG1 LM324/5_1/TI
X_P4_U2B         SHUNT_SIG3 P4_N01126 5V 0 CURRENT_SIG3 LM324/5_1/TI
X_P4_U2C         SHUNT_SIG2 P4_N01148 5V 0 CURRENT_SIG2 LM324/5_1/TI
X_P4_U2D         N00384 P4_N01137 5V 0 CURRENT_SIG4 LM324/5_1/TI
R_P4_R8         P4_N01137 CURRENT_SIG4  47k TC=0,0 
R_P4_R9         0 P4_N01137  5.2k TC=0,0 
R_P4_R7         0 P4_N01148  5.2k TC=0,0 
R_P4_R6         P4_N01148 CURRENT_SIG2  47k TC=0,0 
R_P4_R5         0 P4_N01115  5.2k TC=0,0 
R_P4_R4         P4_N01115 CURRENT_SIG1  47k TC=0,0 
R_P4_R3         0 P4_N01126  5.2k TC=0,0 
R_P4_R2         P4_N01126 CURRENT_SIG3  47k TC=0,0 
R_R1         0 N00384  10k TC=0,0 
V_P5_V1         3V3 0 3.3Vdc
V_P5_V2         5V 0 5Vdc
V_P5_V3         12V 0 12Vdc
V_P5_V4         30V 0 30Vdc

**** RESUMING Solenoid_Driver.cir ****
.END

**** 10/27/21 21:06:53 ******* PSpice 17.4.0 (Nov 2018) ******* ID# 0 ********

 ** Profile: "SCHEMATIC1-Solenoid_Driver"  [ c:\users\markl\documents\sem7\smartsystems\pintowin\schematics\main_control\main_control


 ****     Diode MODEL PARAMETERS


******************************************************************************




               D1N5819         X_P1_M1.MD      X_P1_M1.MD1     X_P1_M1.MD2     
          IS    2.835000E-06   71.066800E-12    0             100.000000E-12 
           N                    1.21428        50                .4          
         ISR   16.980000E-06                                                 
         IKF     .3227                                                       
          BV                  100                                            
         IBV                  250.000000E-06                                 
          RS     .04712          .030263                        3.000000E-06 
          TT                    2.278180E-09                                 
         CJO  302.500000E-12  501.988000E-12  414.565000E-12                 
          VJ     .75             .565258         .5                          
           M     .7206           .378444         .640575                     
          FC                                   10.000000E-09                 
          EG                    1                                            
         XTI    0               2.99378                                      


               X_P1_M1.MD3     X_P2_M2.MD      X_P2_M2.MD1     X_P2_M2.MD2     
          IS  100.000000E-12   71.066800E-12    0             100.000000E-12 
           N     .4             1.21428        50                .4          
          BV                  100                                            
         IBV                  250.000000E-06                                 
          RS                     .030263                        3.000000E-06 
          TT                    2.278180E-09                                 
         CJO                  501.988000E-12  414.565000E-12                 
          VJ                     .565258         .5                          
           M                     .378444         .640575                     
          FC                                   10.000000E-09                 
          EG                    1                                            
         XTI                    2.99378                                      


               X_P2_M2.MD3     X_P3_M3.MD      X_P3_M3.MD1     X_P3_M3.MD2     
          IS  100.000000E-12   71.066800E-12    0             100.000000E-12 
           N     .4             1.21428        50                .4          
          BV                  100                                            
         IBV                  250.000000E-06                                 
          RS                     .030263                        3.000000E-06 
          TT                    2.278180E-09                                 
         CJO                  501.988000E-12  414.565000E-12                 
          VJ                     .565258         .5                          
           M                     .378444         .640575                     
          FC                                   10.000000E-09                 
          EG                    1                                            
         XTI                    2.99378                                      


               X_P3_M3.MD3     X_P4_U2A.DX     X_P4_U2B.DX     X_P4_U2C.DX     
          IS  100.000000E-12  800.000000E-18  800.000000E-18  800.000000E-18 
           N     .4                                                          


               X_P4_U2D.DX     
          IS  800.000000E-18 


**** 10/27/21 21:06:53 ******* PSpice 17.4.0 (Nov 2018) ******* ID# 0 ********

 ** Profile: "SCHEMATIC1-Solenoid_Driver"  [ c:\users\markl\documents\sem7\smartsystems\pintowin\schematics\main_control\main_control


 ****     BJT MODEL PARAMETERS


******************************************************************************




               Q2N3906         Q2N3904         X_P4_U2A.QX     X_P4_U2B.QX     
               PNP             NPN             PNP             PNP             
       LEVEL    1               1               1               1            
          IS    1.410000E-15    6.734000E-15  800.000000E-18  800.000000E-18 
          BF  180.7           416.4           250             250            
          NF    1               1               1               1            
         VAF   18.7            74.03                                         
         IKF     .08             .06678                                      
         ISE                    6.734000E-15                                 
          NE                    1.259                                        
          BR    4.977            .7371          1               1            
          NR    1               1               1               1            
         ISS    0               0               0               0            
          RB   10              10                                            
          RE    0               0               0               0            
          RC    2.5             1               0               0            
         CJE    8.063000E-12    4.493000E-12    0               0            
         VJE     .75             .75             .75             .75         
         MJE     .3677           .2593                                       
         CJC    9.728000E-12    3.638000E-12    0               0            
         VJC     .75             .75             .75             .75         
         MJC     .5776           .3085           .33             .33         
        XCJC    1               1               1               1            
         CJS    0               0               0               0            
         VJS     .75             .75             .75             .75         
          TF  179.300000E-12  301.200000E-12                                 
         XTF    6               2                                            
         VTF    4               4                                            
         ITF     .4              .4                                          
          TR   33.420000E-09  239.500000E-09                                 
         XTB    1.5             1.5                                          
          KF    0               0               0               0            
          AF    1               1               1               1            
          CN    2.2             2.42            2.2             2.2          
           D     .52             .87             .52             .52         


               X_P4_U2C.QX     X_P4_U2D.QX     
               PNP             PNP             
       LEVEL    1               1            
          IS  800.000000E-18  800.000000E-18 
          BF  250             250            
          NF    1               1            
          BR    1               1            
          NR    1               1            
         ISS    0               0            
          RE    0               0            
          RC    0               0            
         CJE    0               0            
         VJE     .75             .75         
         CJC    0               0            
         VJC     .75             .75         
         MJC     .33             .33         
        XCJC    1               1            
         CJS    0               0            
         VJS     .75             .75         
          KF    0               0            
          AF    1               1            
          CN    2.2             2.2          
           D     .52             .52         


**** 10/27/21 21:06:53 ******* PSpice 17.4.0 (Nov 2018) ******* ID# 0 ********

 ** Profile: "SCHEMATIC1-Solenoid_Driver"  [ c:\users\markl\documents\sem7\smartsystems\pintowin\schematics\main_control\main_control


 ****     MOSFET MODEL PARAMETERS


******************************************************************************




               X_P1_M1.MM      X_P2_M2.MM      X_P3_M3.MM      
               NMOS            NMOS            NMOS            
       LEVEL    1               1               1            
           L  100.000000E-06  100.000000E-06  100.000000E-06 
           W  100.000000E-06  100.000000E-06  100.000000E-06 
         VTO    3.61397         3.61397         3.61397      
          KP    3.9143          3.9143          3.9143       
       GAMMA    0               0               0            
         PHI     .6              .6              .6          
      LAMBDA    5.726420E-03    5.726420E-03    5.726420E-03 
          IS    0               0               0            
          JS    0               0               0            
          PB     .8              .8              .8          
        PBSW     .8              .8              .8          
          CJ    0               0               0            
        CJSW    0               0               0            
        CGSO    3.283440E-06    3.283440E-06    3.283440E-06 
        CGDO   10.112000E-12   10.112000E-12   10.112000E-12 
        CGBO    0               0               0            
         TOX    0               0               0            
          XJ    0               0               0            
       UCRIT   10.000000E+03   10.000000E+03   10.000000E+03 
      DIOMOD    1               1               1            
         VFB    0               0               0            
        LETA    0               0               0            
        WETA    0               0               0            
          U0    0               0               0            
        TEMP    0               0               0            
         VDD    5               5               5            
       XPART    0               0               0            


**** 10/27/21 21:06:53 ******* PSpice 17.4.0 (Nov 2018) ******* ID# 0 ********

 ** Profile: "SCHEMATIC1-Solenoid_Driver"  [ c:\users\markl\documents\sem7\smartsystems\pintowin\schematics\main_control\main_control


 ****     INITIAL TRANSIENT SOLUTION       TEMPERATURE =   27.000 DEG C


******************************************************************************



 NODE   VOLTAGE     NODE   VOLTAGE     NODE   VOLTAGE     NODE   VOLTAGE


(   5V)    5.0000  (  12V)   12.0000  (  30V)   30.0000  (  3V3)    3.3000      

(N00384) 218.9E-06 (P1_N00192)   12.0000                 (P1_N00204)   11.7780  

(P1_N00228)   12.0000                 (P1_N00243)     .3833                     

(P1_N00409)   11.7780                 (P1_N00612)     .7793                     

(P1_N00739)     .7793                 (P2_N00192)   12.0000                     

(P2_N00204)   11.7780                 (P2_N00228)   12.0000                     

(P2_N00243)     .3833                 (P2_N00409)   11.7780                     

(P2_N00612)     .7793                 (P2_N00739)     .7793                     

(P3_N00192)   12.0000                 (P3_N00204)   11.7780                     

(P3_N00228)   12.0000                 (P3_N00243)     .3833                     

(P3_N00409)   11.7780                 (P3_N00612)     .7793                     

(P3_N00739)     .7793                 (P4_N01115)     .2436                     

(P4_N01126)     .2436                 (P4_N01137)     .0069                     

(P4_N01148)     .2436                 (X_P1_M1.4)    0.0000                     

(X_P1_M1.5)    -.2628                 (X_P1_M1.6)    -.2628                     

(X_P1_M1.7)   11.7780                 (X_P1_M1.8)     .6601                     

(X_P1_M1.9)     .7434                 (X_P2_M2.4)    0.0000                     

(X_P2_M2.5)    -.2628                 (X_P2_M2.6)    -.2628                     

(X_P2_M2.7)   11.7780                 (X_P2_M2.8)     .6601                     

(X_P2_M2.9)     .7434                 (X_P3_M3.4)    0.0000                     

(X_P3_M3.5)    -.2628                 (X_P3_M3.6)    -.2628                     

(X_P3_M3.7)   11.7780                 (X_P3_M3.8)     .6601                     

(X_P3_M3.9)     .7434                 (SHUNT_SIG1)     .2435                    

(SHUNT_SIG2)     .2435                (SHUNT_SIG3)     .2435                    

(X_P1_M1.10)  -11.0350                (X_P1_M1.11)    -.2628                    

(X_P2_M2.10)  -11.0350                (X_P2_M2.11)    -.2628                    

(X_P3_M3.10)  -11.0350                (X_P3_M3.11)    -.2628                    

(X_P4_U2A.6) 6.181E-06                (X_P4_U2A.7)    2.4470                    

(X_P4_U2A.8)    2.4470                (X_P4_U2A.9)    0.0000                    

(X_P4_U2B.6) 6.181E-06                (X_P4_U2B.7)    2.4470                    

(X_P4_U2B.8)    2.4470                (X_P4_U2B.9)    0.0000                    

(X_P4_U2C.6) 6.181E-06                (X_P4_U2C.7)    2.4470                    

(X_P4_U2C.8)    2.4470                (X_P4_U2C.9)    0.0000                    

(X_P4_U2D.6)     .0836                (X_P4_U2D.7)     .0689                    

(X_P4_U2D.8)     .0689                (X_P4_U2D.9)    0.0000                    

(X_P4_U2A.10)     .8412               (X_P4_U2A.11)     .0401                   

(X_P4_U2A.12)     .0402               (X_P4_U2A.13)     .8272                   

(X_P4_U2A.14)     .8272               (X_P4_U2A.53)    2.9000                   

(X_P4_U2A.54)     .6000               (X_P4_U2A.90)     .0468                   

(X_P4_U2A.91)   40.0000               (X_P4_U2A.92)  -40.0000                   

(X_P4_U2A.99)    2.5000               (X_P4_U2B.10)     .8412                   

(X_P4_U2B.11)     .0401               (X_P4_U2B.12)     .0402                   

(X_P4_U2B.13)     .8272               (X_P4_U2B.14)     .8272                   

(X_P4_U2B.53)    2.9000               (X_P4_U2B.54)     .6000                   

(X_P4_U2B.90)     .0468               (X_P4_U2B.91)   40.0000                   

(X_P4_U2B.92)  -40.0000               (X_P4_U2B.99)    2.5000                   

(X_P4_U2C.10)     .8412               (X_P4_U2C.11)     .0401                   

(X_P4_U2C.12)     .0402               (X_P4_U2C.13)     .8272                   

(X_P4_U2C.14)     .8272               (X_P4_U2C.53)    2.9000                   

(X_P4_U2C.54)     .6000               (X_P4_U2C.90)     .0468                   

(X_P4_U2C.91)   40.0000               (X_P4_U2C.92)  -40.0000                   

(X_P4_U2C.99)    2.5000               (X_P4_U2D.10)     .6012                   

(X_P4_U2D.11)     .0368               (X_P4_U2D.12)     .0435                   

(X_P4_U2D.13)     .5883               (X_P4_U2D.14)     .5859                   

(X_P4_U2D.53)    2.9000               (X_P4_U2D.54)     .6000                   

(X_P4_U2D.90) 654.8E-06               (X_P4_U2D.91)   40.0000                   

(X_P4_U2D.92)  -40.0000               (X_P4_U2D.99)    2.5000                   

(CURRENT_SIG1)    2.4447              (CURRENT_SIG2)    2.4447                  

(CURRENT_SIG3)    2.4447              (CURRENT_SIG4)     .0689                  

(PWM_SOLENOID1)    0.0000             (PWM_SOLENOID2)    0.0000                 

(PWM_SOLENOID3)    0.0000             




    VOLTAGE SOURCE CURRENTS
    NAME         CURRENT

    V_P1_V5      1.162E-03
    V_P2_V6      1.162E-03
    V_P3_V7      1.162E-03
    V_P5_V1      0.000E+00
    V_P5_V2     -7.000E-04
    V_P5_V3     -3.485E-03
    V_P5_V4     -7.306E+00
    X_P1_M1.VFI2  -2.628E-13
    X_P1_M1.VFI1   0.000E+00
    X_P2_M2.VFI2  -2.628E-13
    X_P2_M2.VFI1   0.000E+00
    X_P3_M3.VFI2  -2.628E-13
    X_P3_M3.VFI1   0.000E+00
    X_P4_U2A.VB   6.181E-11
    X_P4_U2A.VC   4.561E-13
    X_P4_U2A.VE   1.845E-12
    X_P4_U2A.VLIM   4.683E-05
    X_P4_U2A.VLP  -3.995E-11
    X_P4_U2A.VLN  -4.005E-11
    X_P4_U2B.VB   6.181E-11
    X_P4_U2B.VC   4.561E-13
    X_P4_U2B.VE   1.845E-12
